Sample in Buffer,Sample in Window,TRIGGER,u_ila_0_csi_to_axis_0_data_err[1:0],u_ila_0_packet_id_dbg[7:0],u_ila_0_merge_data_dbg[15:0],u_ila_0_parse_data_dbg[15:0],user_probe_0[1:0],u_ila_0_packet_size_dbg[15:0],u_ila_0_align_valid_dbg[1:0],u_ila_0_dl1_datahs[7:0],u_ila_0_transfer_cnt_dbg[15:0],u_ila_0_dl0_datahs[7:0],u_ila_0_align_data_dbg[15:0],u_ila_0_align_resync_dbg,u_ila_0_dl0_rxactivehs,u_ila_0_dl0_rxsynchs,u_ila_0_frame_start_dbg,u_ila_0_line_start_dbg,u_ila_0_merge_resync_dbg,u_ila_0_merge_valid_dbg,u_ila_0_packet_id_upd_dbd,u_ila_0_parse_last_dbg,u_ila_0_parse_user_dbg,u_ila_0_parse_valid_dbg
0,0,0,0,00,ff4f,ff4f,1,00b6,00,00000000,0000,00101100,1111111101001111,0,0,0,0,0,0,0,0,0,0,0
1,1,0,0,00,ff4f,ff4f,1,00b6,00,00000011,0000,10111001,1111111101001111,0,0,0,0,0,0,0,0,0,0,0
2,2,0,0,00,ff4f,ff4f,1,00b6,00,00000110,0000,01100100,1111111101001111,0,0,0,0,0,0,0,0,0,0,0
3,3,0,0,00,ff4f,ff4f,1,00b6,00,00001000,0000,11001001,1111111101001111,0,0,0,0,0,0,0,0,0,0,0
4,4,0,0,00,ff4f,ff4f,1,00b6,00,00110000,0000,10010010,1111111101001111,0,0,0,0,0,0,0,0,0,0,0
5,5,0,0,00,ff4f,ff4f,1,00b6,00,01100000,0000,01001011,1111111101001111,0,0,0,0,0,0,0,0,0,0,0
6,6,0,0,00,ff4f,ff4f,1,00b6,00,10000000,0000,10010110,1111111101001111,0,0,0,0,0,0,0,0,0,0,0
7,7,0,0,00,ff4f,ff4f,1,00b6,00,00000000,0000,00101100,1111111101001111,0,0,0,0,0,0,0,0,0,0,0
8,8,0,0,00,ff4f,ff4f,1,00b6,00,00000011,0000,10111001,1111111101001111,0,0,0,0,0,0,0,0,0,0,0
9,9,0,0,00,ff4f,ff4f,1,00b6,00,00000110,0000,01100100,1111111101001111,0,0,0,0,0,0,0,0,0,0,0
10,10,0,0,00,ff4f,ff4f,1,00b6,00,00001000,0000,11001001,1111111101001111,0,0,0,0,0,0,0,0,0,0,0
11,11,0,0,00,ff4f,ff4f,1,00b6,00,00110000,0000,10110010,1111111101001111,0,0,0,0,0,0,0,0,0,0,0
12,12,0,0,00,ff4f,ff4f,1,00b6,00,01100000,0000,01001011,1111111101001111,0,0,0,0,0,0,0,0,0,0,0
13,13,0,0,00,ff4f,ff4f,1,00b6,00,10000000,0000,10010110,1111111101001111,0,0,0,0,0,0,0,0,0,0,0
14,14,0,0,00,ff4f,ff4f,1,00b6,00,00000000,0000,01101100,1111111101001111,0,0,0,0,0,0,0,0,0,0,0
15,15,0,0,00,ff4f,ff4f,1,00b6,00,00000011,0000,10111011,1111111101001111,0,0,0,0,0,0,0,0,0,0,0
16,16,0,0,00,ff4f,ff4f,1,00b6,00,00000110,0000,01100000,1111111101001111,0,0,0,0,0,0,0,0,0,0,0
17,17,0,0,00,ff4f,ff4f,1,00b6,00,00001000,0000,11001001,1111111101001111,0,0,0,0,0,0,0,0,0,0,0
18,18,0,0,00,ff4f,ff4f,1,00b6,00,00110000,0000,10110010,1111111101001111,0,0,0,0,0,0,0,0,0,0,0
19,19,0,0,00,ff4f,ff4f,1,00b6,00,01100000,0000,01001011,1111111101001111,0,0,0,0,0,0,0,0,0,0,0
20,20,0,0,00,ff4f,ff4f,1,00b6,00,10000000,0000,10010110,1111111101001111,0,0,0,0,0,0,0,0,0,0,0
21,21,0,0,00,ff4f,ff4f,1,00b6,00,00000000,0000,01101100,1111111101001111,0,0,0,0,0,0,0,0,0,0,0
22,22,0,0,00,ff4f,ff4f,1,00b6,00,00000011,0000,10111011,1111111101001111,0,0,0,0,0,0,0,0,0,0,0
23,23,0,0,00,ff4f,ff4f,1,00b6,00,00000110,0000,01100100,1111111101001111,0,0,0,0,0,0,0,0,0,0,0
24,24,0,0,00,ff4f,ff4f,1,00b6,00,00001000,0000,11001001,1111111101001111,0,0,0,0,0,0,0,0,0,0,0
25,25,0,0,00,ff4f,ff4f,1,00b6,00,00110000,0000,10110010,1111111101001111,0,0,0,0,0,0,0,0,0,0,0
26,26,0,0,00,ff4f,ff4f,1,00b6,00,01100000,0000,01001011,1111111101001111,0,0,0,0,0,0,0,0,0,0,0
27,27,0,0,00,ff4f,ff4f,1,00b6,00,10000000,0000,10010110,1111111101001111,0,0,0,0,0,0,0,0,0,0,0
28,28,0,0,00,ff4f,ff4f,1,00b6,00,00000000,0000,00101100,1111111101001111,0,0,0,0,0,0,0,0,0,0,0
29,29,0,0,00,ff4f,ff4f,1,00b6,00,00000011,0000,10111011,1111111101001111,0,0,0,0,0,0,0,0,0,0,0
30,30,0,0,00,ff4f,ff4f,1,00b6,00,00000110,0000,01100100,1111111101001111,0,0,0,0,0,0,0,0,0,0,0
31,31,0,0,00,ff4f,ff4f,1,00b6,00,00001000,0000,11001001,1111111101001111,0,0,0,0,0,0,0,0,0,0,0
32,32,0,0,00,ff4f,ff4f,1,00b6,00,00110000,0000,10010010,1111111101001111,0,0,0,0,0,0,0,0,0,0,0
33,33,0,0,00,ff4f,ff4f,1,00b6,00,01100000,0000,01001011,1111111101001111,0,0,0,0,0,0,0,0,0,0,0
34,34,0,0,00,ff4f,ff4f,1,00b6,00,10000000,0000,10010110,1111111101001111,0,0,0,0,0,0,0,0,0,0,0
35,35,0,0,00,ff4f,ff4f,1,00b6,00,00000000,0000,00101100,1111111101001111,0,0,0,0,0,0,0,0,0,0,0
36,36,0,0,00,ff4f,ff4f,1,00b6,00,00000011,0000,10111001,1111111101001111,0,0,0,0,0,0,0,0,0,0,0
37,37,0,0,00,ff4f,ff4f,1,00b6,00,00000110,0000,01100100,1111111101001111,0,0,0,0,0,0,0,0,0,0,0
38,38,0,0,00,ff4f,ff4f,1,00b6,00,00001000,0000,11001001,1111111101001111,0,0,0,0,0,0,0,0,0,0,0
39,39,0,0,00,ff4f,ff4f,1,00b6,00,00110000,0000,10110010,1111111101001111,0,0,0,0,0,0,0,0,0,0,0
40,40,0,0,00,ff4f,ff4f,1,00b6,00,01100000,0000,01001011,1111111101001111,0,0,0,0,0,0,0,0,0,0,0
41,41,0,0,00,ff4f,ff4f,1,00b6,00,10000000,0000,10010110,1111111101001111,0,0,0,0,0,0,0,0,0,0,0
42,42,0,0,00,ff4f,ff4f,1,00b6,00,00000000,0000,00101100,1111111101001111,0,0,0,0,0,0,0,0,0,0,0
43,43,0,0,00,ff4f,ff4f,1,00b6,00,00000011,0000,10111011,1111111101001111,0,0,0,0,0,0,0,0,0,0,0
44,44,0,0,00,ff4f,ff4f,1,00b6,00,00000110,0000,01100000,1111111101001111,0,0,0,0,0,0,0,0,0,0,0
45,45,0,0,00,ff4f,ff4f,1,00b6,00,00001000,0000,11001001,1111111101001111,0,0,0,0,0,0,0,0,0,0,0
46,46,0,0,00,ff4f,ff4f,1,00b6,00,00110000,0000,10110010,1111111101001111,0,0,0,0,0,0,0,0,0,0,0
47,47,0,0,00,ff4f,ff4f,1,00b6,00,01100000,0000,00001011,1111111101001111,0,0,0,0,0,0,0,0,0,0,0
48,48,0,0,00,ff4f,ff4f,1,00b6,00,10000000,0000,10010110,1111111101001111,0,0,0,0,0,0,0,0,0,0,0
49,49,0,0,00,ff4f,ff4f,1,00b6,00,00000000,0000,00101100,1111111101001111,0,0,0,0,0,0,0,0,0,0,0
50,50,0,0,00,ff4f,ff4f,1,00b6,00,00000011,0000,10111011,1111111101001111,0,0,0,0,0,0,0,0,0,0,0
51,51,0,0,00,ff4f,ff4f,1,00b6,00,00000110,0000,01100100,1111111101001111,0,0,0,0,0,0,0,0,0,0,0
52,52,0,0,00,ff4f,ff4f,1,00b6,00,00001000,0000,11001001,1111111101001111,0,0,0,0,0,0,0,0,0,0,0
53,53,0,0,00,ff4f,ff4f,1,00b6,00,00110000,0000,10010010,1111111101001111,0,0,0,0,0,0,0,0,0,0,0
54,54,0,0,00,ff4f,ff4f,1,00b6,00,01100000,0000,01001011,1111111101001111,0,0,0,0,0,0,0,0,0,0,0
55,55,0,0,00,ff4f,ff4f,1,00b6,00,10000000,0000,10010110,1111111101001111,0,0,0,0,0,0,0,0,0,0,0
56,56,0,0,00,ff4f,ff4f,1,00b6,00,00000000,0000,00101100,1111111101001111,0,0,0,0,0,0,0,0,0,0,0
57,57,0,0,00,ff4f,ff4f,1,00b6,00,00000011,0000,10111011,1111111101001111,0,0,0,0,0,0,0,0,0,0,0
58,58,0,0,00,ff4f,ff4f,1,00b6,00,00000110,0000,01100100,1111111101001111,0,0,0,0,0,0,0,0,0,0,0
59,59,0,0,00,ff4f,ff4f,1,00b6,00,00001000,0000,11001001,1111111101001111,0,0,0,0,0,0,0,0,0,0,0
60,60,0,0,00,ff4f,ff4f,1,00b6,00,00110000,0000,10010010,1111111101001111,0,0,0,0,0,0,0,0,0,0,0
61,61,0,0,00,ff4f,ff4f,1,00b6,00,01100000,0000,01001011,1111111101001111,0,0,0,0,0,0,0,0,0,0,0
62,62,0,0,00,ff4f,ff4f,1,00b6,00,10000000,0000,10010110,1111111101001111,0,0,0,0,0,0,0,0,0,0,0
63,63,0,0,00,ff4f,ff4f,1,00b6,00,00000000,0000,00101100,1111111101001111,0,0,0,0,0,0,0,0,0,0,0
64,64,0,0,00,ff4f,ff4f,1,00b6,00,00000011,0000,10111001,1111111101001111,0,0,0,0,0,0,0,0,0,0,0
65,65,0,0,00,ff4f,ff4f,1,00b6,00,00000110,0000,01100100,1111111101001111,0,0,0,0,0,0,0,0,0,0,0
66,66,0,0,00,ff4f,ff4f,1,00b6,00,00001000,0000,11001001,1111111101001111,0,0,0,0,0,0,0,0,0,0,0
67,67,0,0,00,ff4f,ff4f,1,00b6,00,00110000,0000,10010010,1111111101001111,0,0,0,0,0,0,0,0,0,0,0
68,68,0,0,00,ff4f,ff4f,1,00b6,00,01100000,0000,01001011,1111111101001111,0,0,0,0,0,0,0,0,0,0,0
69,69,0,0,00,ff4f,ff4f,1,00b6,00,10000000,0000,10010110,1111111101001111,0,0,0,0,0,0,0,0,0,0,0
70,70,0,0,00,ff4f,ff4f,1,00b6,00,00000000,0000,00101100,1111111101001111,0,0,0,0,0,0,0,0,0,0,0
71,71,0,0,00,ff4f,ff4f,1,00b6,00,00000011,0000,10111001,1111111101001111,0,0,0,0,0,0,0,0,0,0,0
72,72,0,0,00,ff4f,ff4f,1,00b6,00,00000110,0000,01100100,1111111101001111,0,0,0,0,0,0,0,0,0,0,0
73,73,0,0,00,ff4f,ff4f,1,00b6,00,00001000,0000,11001001,1111111101001111,0,0,0,0,0,0,0,0,0,0,0
74,74,0,0,00,ff4f,ff4f,1,00b6,00,00110000,0000,10010010,1111111101001111,0,0,0,0,0,0,0,0,0,0,0
75,75,0,0,00,ff4f,ff4f,1,00b6,00,01100000,0000,01001011,1111111101001111,0,0,0,0,0,0,0,0,0,0,0
76,76,0,0,00,ff4f,ff4f,1,00b6,00,10000000,0000,10010110,1111111101001111,0,0,0,0,0,0,0,0,0,0,0
77,77,0,0,00,ff4f,ff4f,1,00b6,00,00000000,0000,00101100,1111111101001111,0,0,0,0,0,0,0,0,0,0,0
78,78,0,0,00,ff4f,ff4f,1,00b6,00,00000011,0000,10111001,1111111101001111,0,0,0,0,0,0,0,0,0,0,0
79,79,0,0,00,ff4f,ff4f,1,00b6,00,00000110,0000,01100100,1111111101001111,0,0,0,0,0,0,0,0,0,0,0
80,80,0,0,00,ff4f,ff4f,1,00b6,00,00001000,0000,11001001,1111111101001111,0,0,0,0,0,0,0,0,0,0,0
81,81,0,0,00,ff4f,ff4f,1,00b6,00,00110000,0000,10010010,1111111101001111,0,0,0,0,0,0,0,0,0,0,0
82,82,0,0,00,ff4f,ff4f,1,00b6,00,01100000,0000,01001011,1111111101001111,0,0,0,0,0,0,0,0,0,0,0
83,83,0,0,00,ff4f,ff4f,1,00b6,00,10000000,0000,10010111,1111111101001111,0,0,0,0,0,0,0,0,0,0,0
84,84,0,0,00,ff4f,ff4f,1,00b6,00,00000000,0000,00101100,1111111101001111,0,0,0,0,0,0,0,0,0,0,0
85,85,0,0,00,ff4f,ff4f,1,00b6,00,00000011,0000,10111001,1111111101001111,0,0,0,0,0,0,0,0,0,0,0
86,86,0,0,00,ff4f,ff4f,1,00b6,00,00000110,0000,01100000,1111111101001111,0,0,0,0,0,0,0,0,0,0,0
87,87,0,0,00,ff4f,ff4f,1,00b6,00,00001000,0000,11001001,1111111101001111,0,0,0,0,0,0,0,0,0,0,0
88,88,0,0,00,ff4f,ff4f,1,00b6,00,00110000,0000,10110010,1111111101001111,0,0,0,0,0,0,0,0,0,0,0
89,89,0,0,00,ff4f,ff4f,1,00b6,00,01100000,0000,00001011,1111111101001111,0,0,0,0,0,0,0,0,0,0,0
90,90,0,0,00,ff4f,ff4f,1,00b6,00,10000000,0000,10010111,1111111101001111,0,0,0,0,0,0,0,0,0,0,0
91,91,0,0,00,ff4f,ff4f,1,00b6,00,00000000,0000,00101100,1111111101001111,0,0,0,0,0,0,0,0,0,0,0
92,92,0,0,00,ff4f,ff4f,1,00b6,00,00000011,0000,10111011,1111111101001111,0,0,0,0,0,0,0,0,0,0,0
93,93,0,0,00,ff4f,ff4f,1,00b6,00,00000110,0000,01100100,1111111101001111,0,0,0,0,0,0,0,0,0,0,0
94,94,0,0,00,ff4f,ff4f,1,00b6,00,00001000,0000,11001001,1111111101001111,0,0,0,0,0,0,0,0,0,0,0
95,95,0,0,00,ff4f,ff4f,1,00b6,00,00110000,0000,10010010,1111111101001111,0,0,0,0,0,0,0,0,0,0,0
96,96,0,0,00,ff4f,ff4f,1,00b6,00,01100000,0000,01001011,1111111101001111,0,0,0,0,0,0,0,0,0,0,0
97,97,0,0,00,ff4f,ff4f,1,00b6,00,10000000,0000,10010110,1111111101001111,0,0,0,0,0,0,0,0,0,0,0
98,98,0,0,00,ff4f,ff4f,1,00b6,00,00000000,0000,00101100,1111111101001111,0,0,0,0,0,0,0,0,0,0,0
99,99,0,0,00,ff4f,ff4f,1,00b6,00,00000011,0000,10111011,1111111101001111,0,0,0,0,0,0,0,0,0,0,0
100,100,1,0,00,ff4f,ff4f,1,00b6,00,00000110,0000,00000100,1111111101001111,0,0,1,0,0,0,0,0,0,0,0
101,101,0,0,00,ff4f,ff4f,1,00b6,00,00000000,0000,00000000,1111111101001111,0,1,1,0,0,0,0,0,0,0,0
102,102,0,0,00,ff4f,ff4f,1,00b6,00,00000000,0000,00000000,1111111101001111,0,1,0,0,0,0,0,0,0,0,0
103,103,0,0,00,ff4f,ff4f,1,00b6,00,00000000,0000,01001001,1111111100001110,0,1,0,0,0,0,0,0,0,0,0
104,104,0,0,00,ff0e,ff4f,1,00b6,00,00000000,0000,10011110,0000000000000000,0,1,0,0,0,0,0,0,0,0,0
105,105,0,0,00,0000,ff0e,0,00b6,00,00000000,0000,01111000,0000000010010000,0,1,0,0,0,0,0,0,0,0,0
106,106,0,0,00,0090,0000,0,00b6,00,00000000,0000,11110010,0000000011100100,0,1,0,0,0,0,0,0,0,0,0
107,107,0,0,00,00e4,0090,0,00b6,00,00000000,0000,11100100,0000000010001001,0,1,0,0,0,0,0,0,0,0,0
108,108,0,0,00,0089,00e4,0,00b6,00,00000000,0000,11001001,0000000000100111,0,1,0,0,0,0,0,0,0,0,0
109,109,0,0,00,0027,0089,1,00b6,00,00000000,0000,00000111,0000000001001111,0,1,0,0,0,0,0,0,0,0,0
110,110,0,0,00,004f,0027,1,00b6,00,11000000,0000,01001111,0000000010011110,0,1,0,0,0,0,0,0,0,0,0
111,111,0,0,00,009e,004f,1,00b6,00,10000010,0000,10011110,0000000001111100,0,1,0,0,0,0,0,0,0,0,0
112,112,0,0,00,007c,009e,0,00b6,00,01000001,0000,01111100,0000000011110000,0,1,0,0,0,0,0,0,0,0,0
113,113,0,0,00,00f0,007c,0,00b6,00,10000111,0000,11110010,1100000011100100,0,1,0,0,0,0,0,0,0,0,0
114,114,0,0,00,c0e4,00f0,0,00b6,00,00101100,0000,01100100,1000001011001001,0,1,0,0,0,0,0,0,0,0,0
115,115,0,0,00,82c9,c0e4,0,00b6,00,00011000,0000,10011011,0100000100100111,0,1,0,0,0,0,0,0,0,0,0
116,116,0,0,00,4127,82c9,1,00b6,00,00000000,0000,00100111,1000011101001111,0,1,0,0,0,0,0,0,0,0,0
117,117,0,0,00,874f,4127,1,00b6,00,00000000,0000,01001111,0010110010110110,0,1,0,0,0,0,0,0,0,0,0
118,118,0,0,00,2cb6,874f,1,00b6,00,00000000,0000,10011110,0001100001111001,0,1,0,0,0,0,0,0,0,0,0
119,119,0,0,00,1879,2cb6,0,00b6,00,00000000,0000,01111000,0000000011110010,0,1,0,0,0,0,0,0,0,0,0
120,120,0,0,00,00f2,1879,1,00b6,00,00000000,0000,11110010,0000000011100100,0,1,0,0,0,0,0,0,0,0,0
121,121,0,0,00,00e4,00f2,0,00b6,00,00000000,0000,11100100,0000000010001001,0,1,0,0,0,0,0,0,0,0,0
122,122,0,0,00,0089,00e4,0,00b6,00,00000000,0000,10001001,0000000000100111,0,1,0,0,0,0,0,0,0,0,0
123,123,0,0,00,0027,0089,1,00b6,00,00000000,0000,00100111,0000000001001111,0,1,0,0,0,0,0,0,0,0,0
124,124,0,0,00,004f,0027,1,00b6,00,00000000,0000,01001111,0000000010011110,0,1,0,0,0,0,0,0,0,0,0
125,125,0,0,00,009e,004f,1,00b6,00,00000000,0000,11011110,0000000001111000,0,1,0,0,0,0,0,0,0,0,0
126,126,0,0,00,0078,009e,0,00b6,00,01110000,0000,11111101,0000000011110010,0,1,0,0,0,0,0,0,0,0,0
127,127,0,0,00,00f2,0078,0,00b6,00,00000001,0000,10111000,0000000011100100,0,1,0,0,0,0,0,0,0,0,0
128,128,0,0,00,00e4,00f2,0,00b6,00,00111100,0000,11110000,0000000011011101,0,1,0,0,0,0,0,0,0,0,0
129,129,0,0,00,00dd,00e4,0,00b6,00,00101110,0000,11010011,0111000010001111,0,1,0,0,0,0,0,0,0,0,0
130,130,0,0,00,708f,00dd,1,00b6,11,00110001,0000,10010011,0000000011110000,0,1,0,0,0,0,0,0,0,0,0
131,131,0,0,00,00f0,708f,1,00b6,11,00110001,0000,01001011,0001111011010011,0,1,0,0,0,0,0,0,0,0,0
132,132,0,0,00,00f0,00f0,0,00b6,11,00110001,0000,10000011,1001011110010011,1,1,0,0,0,0,1,0,0,0,0
133,133,0,0,00,1ed3,00f0,0,00b6,00,00110001,0000,11110001,1001100001001011,1,1,0,0,0,1,0,0,0,0,0
134,134,0,0,00,984b,1ed3,1,00b6,00,00101111,0000,10000011,1001100010000011,0,1,0,0,0,0,0,0,0,0,0
135,135,0,0,00,9883,984b,1,00b6,00,00101011,0000,11001100,1001100011110001,0,1,0,0,0,0,0,0,0,0,0
136,136,0,0,00,98f1,9883,1,00b6,00,00101001,0000,11010011,1001100010000011,0,1,0,0,0,0,0,0,0,0,0
137,137,0,0,00,9883,98f1,1,00b6,00,00100111,0000,10010011,1001011111001100,0,1,0,0,0,0,0,0,0,0,0
138,138,0,0,00,97cc,9883,1,00b6,00,00100101,0000,11001011,1001010111010011,0,1,0,0,0,0,0,0,0,0,0
139,139,0,0,00,95d3,97cc,0,00b6,00,00101001,0000,10110111,1001010010010011,0,1,0,0,0,0,0,0,0,0,0
140,140,0,0,00,9493,95d3,1,00b6,00,00101101,0000,00111001,1001001111001011,0,1,0,0,0,0,0,0,0,0,0
141,141,0,0,00,93cb,9493,1,00b6,00,00101101,0000,10010011,1001001010110111,0,1,0,0,0,0,0,0,0,0,0
142,142,0,0,00,92b7,93cb,1,00b6,00,00101111,0000,11000100,1001010000111001,0,1,0,0,0,0,0,0,0,0,0
143,143,0,0,00,9439,92b7,1,00b6,00,00110001,0000,10001011,1001011010010011,0,1,0,0,0,0,0,0,0,0,0
144,144,0,0,00,9693,9439,1,00b6,00,00101111,0000,10110100,1001011011000100,0,1,0,0,0,0,0,0,0,0,0
145,145,0,0,00,96c4,9693,1,00b6,00,00101101,0000,11001011,1001011110001011,0,1,0,0,0,0,0,0,0,0,0
146,146,0,0,00,978b,96c4,0,00b6,00,00101111,0000,10000011,1001100010110100,0,1,0,0,0,0,0,0,0,0,0
147,147,0,0,00,98b4,978b,1,00b6,00,00110001,0000,11101001,1001011111001011,0,1,0,0,0,0,0,0,0,0,0
148,148,0,0,00,97cb,98b4,0,00b6,00,00110101,0000,11000011,1001011010000011,0,1,0,0,0,0,0,0,0,0,0
149,149,0,0,00,9683,97cb,1,00b6,00,00110101,0000,11100011,1001011111101001,0,1,0,0,0,0,0,0,0,0,0
150,150,0,0,00,97e9,9683,1,00b6,00,00111001,0000,10010011,1001100011000011,0,1,0,0,0,0,0,0,0,0,0
151,151,0,0,00,98c3,97e9,1,00b6,00,00110101,0000,10110011,1001101011100011,0,1,0,0,0,0,0,0,0,0,0
152,152,0,0,00,9ae3,98c3,1,00b6,00,00101111,0000,11000011,1001101010010011,0,1,0,0,0,0,0,0,0,0,0
153,153,0,0,00,9a93,9ae3,1,00b6,00,00110001,0000,00011111,1001110010110011,0,1,0,0,0,0,0,0,0,0,0
154,154,0,0,00,9cb3,9a93,1,00b6,00,00110101,0000,11111100,1001101011000011,0,1,0,0,0,0,0,0,0,0,0
155,155,0,0,00,9ac3,9cb3,1,00b6,00,00110101,0000,00010011,1001011100011111,0,1,0,0,0,0,0,0,0,0,0
156,156,0,0,00,971f,9ac3,1,00b6,00,00110101,0000,11111100,1001100011111100,0,1,0,0,0,0,0,0,0,0,0
157,157,0,0,00,98fc,971f,1,00b6,00,00110111,0000,11000011,1001101000010011,0,1,0,0,0,0,0,0,0,0,0
158,158,0,0,00,9a13,98fc,0,00b6,00,00111011,0000,10100011,1001101011111100,0,1,0,0,0,0,0,0,0,0,0
159,159,0,0,00,9afc,9a13,1,00b6,00,00111101,0000,01011011,1001101011000011,0,1,0,0,0,0,0,0,0,0,0
160,160,0,0,00,9ac3,9afc,0,00b6,00,00110111,0000,11000011,1001101110100011,0,1,0,0,0,0,0,0,0,0,0
161,161,0,0,00,9ba3,9ac3,1,00b6,00,00110111,0000,11110001,1001110101011011,0,1,0,0,0,0,0,0,0,0,0
162,162,0,0,00,9d5b,9ba3,1,00b6,00,00111001,0000,10010011,1001111011000011,0,1,0,0,0,0,0,0,0,0,0
163,163,0,0,00,9ec3,9d5b,1,00b6,00,00111001,0000,11010011,1001101111110001,0,1,0,0,0,0,0,0,0,0,0
164,164,0,0,00,9bf1,9ec3,1,00b6,00,00110111,0000,10010011,1001101110010011,0,1,0,0,0,0,0,0,0,0,0
165,165,0,0,00,9b93,9bf1,1,00b6,00,00110101,0000,10100011,1001110011010011,0,1,0,0,0,0,0,0,0,0,0
166,166,0,0,00,9cd3,9b93,1,00b6,00,00110111,0000,00001011,1001110010010011,0,1,0,0,0,0,0,0,0,0,0
167,167,0,0,00,9c93,9cd3,1,00b6,00,00111001,0000,11111100,1001101110100011,0,1,0,0,0,0,0,0,0,0,0
168,168,0,0,00,9ba3,9c93,1,00b6,00,00111101,0000,11110001,1001101000001011,0,1,0,0,0,0,0,0,0,0,0
169,169,0,0,00,9a0b,9ba3,1,00b6,00,00111101,0000,11010011,1001101111111100,0,1,0,0,0,0,0,0,0,0,0
170,170,0,0,00,9bfc,9a0b,1,00b6,00,00111101,0000,11000011,1001110011110001,0,1,0,0,0,0,0,0,0,0,0
171,171,0,0,00,9cf1,9bfc,0,00b6,00,00111101,0000,10010011,1001111011010011,0,1,0,0,0,0,0,0,0,0,0
172,172,0,0,00,9ed3,9cf1,1,00b6,00,00111011,0000,10010011,1001111011000011,0,1,0,0,0,0,0,0,0,0,0
173,173,0,0,00,9ec3,9ed3,1,00b6,00,00111011,0000,11000011,1001111010010011,0,1,0,0,0,0,0,0,0,0,0
174,174,0,0,00,9e93,9ec3,1,00b6,00,00111111,0000,11010111,1001111010010011,0,1,0,0,0,0,0,0,0,0,0
175,175,0,0,00,9e93,9e93,1,00b6,00,00111101,0000,11111001,1001110111000011,0,1,0,0,0,0,0,0,0,0,0
176,176,0,0,00,9dc3,9e93,1,00b6,00,00111001,0000,11110011,1001110111010111,0,1,0,0,0,0,0,0,0,0,0
177,177,0,0,00,9dd7,9dc3,1,00b6,00,00110111,0000,11110011,1001111111111001,0,1,0,0,0,0,0,0,0,0,0
178,178,0,0,00,9ff9,9dd7,1,00b6,00,00110101,0000,11000011,1001111011110011,0,1,0,0,0,0,0,0,0,0,0
179,179,0,0,00,9ef3,9ff9,1,00b6,00,00110111,0000,00000011,1001110011110011,0,1,0,0,0,0,0,0,0,0,0
180,180,0,0,00,9cf3,9ef3,1,00b6,00,00111001,0000,11101110,1001101111000011,0,1,0,0,0,0,0,0,0,0,0
181,181,0,0,00,9bc3,9cf3,1,00b6,00,00111001,0000,10110011,1001101000000011,0,1,0,0,0,0,0,0,0,0,0
182,182,0,0,00,9a03,9bc3,1,00b6,00,00111001,0000,11111001,1001101111101110,0,1,0,0,0,0,0,0,0,0,0
183,183,0,0,00,9bee,9a03,1,00b6,01,00111001,0000,11110011,0011100111001111,0,1,0,0,0,0,0,0,0,0,0
184,184,0,0,00,39cf,9bee,0,00b6,01,00111001,0000,11100011,0011100111100110,0,1,0,0,0,0,0,0,0,0,0
185,185,0,0,00,39cf,39cf,1,00b6,01,00111101,0000,11000011,0011100111001111,1,1,0,0,0,1,0,0,0,0,0
186,186,0,0,00,39cf,39cf,1,00b6,00,00111101,0000,10110011,0011100110001111,0,1,0,0,0,0,0,0,0,0,0
187,187,0,0,00,398f,39cf,1,00b6,00,00111011,0000,01011011,0011100100001111,0,1,0,0,0,0,0,0,0,0,0
188,188,0,0,00,390f,398f,1,00b6,00,00111001,0000,10010011,0011110111001111,0,1,0,0,0,0,0,0,0,0,0
189,189,0,0,00,3dcf,390f,1,00b6,00,00111011,0000,00011001,0011110101101110,0,1,0,0,0,0,0,0,0,0,0
190,190,0,0,00,3d6e,3dcf,1,00b6,00,00111001,0000,11100000,0011101101001101,0,1,0,0,0,0,0,0,0,0,0
191,191,0,0,00,3b4d,3d6e,0,00b6,00,00111001,0000,01100011,0011100101100110,0,1,0,0,0,0,0,0,0,0,0
192,192,0,0,00,3966,3b4d,1,00b6,00,00111011,0000,11001001,0011101110000000,0,1,0,0,0,0,0,0,0,0,0
193,193,0,0,00,3b80,3966,0,00b6,00,00111101,0000,00000011,0011100110001111,0,1,0,0,0,0,0,0,0,0,0
194,194,0,0,00,398f,3b80,0,00b6,00,00111101,0000,11011110,0011100100100101,0,1,0,0,0,0,0,0,0,0,0
195,195,0,0,00,3925,398f,1,00b6,00,00111101,0000,10010111,0011101100001111,0,1,0,0,0,0,0,0,0,0,0
196,196,0,0,00,3b0f,3925,1,00b6,00,00111011,0000,11000001,0011110101111000,0,1,0,0,0,0,0,0,0,0,0
197,197,0,0,00,3d78,3b0f,1,00b6,00,00111101,0000,11110011,0011110101011111,0,1,0,0,0,0,0,0,0,0,0
198,198,0,0,00,3d5f,3d78,0,00b6,00,00111111,0000,11000011,0011110100000110,0,1,0,0,0,0,0,0,0,0,0
199,199,0,0,00,3d06,3d5f,1,00b6,00,01000001,0000,11001011,0011101111001111,0,1,0,0,0,0,0,0,0,0,0
200,200,0,0,00,3bcf,3d06,0,00b6,00,00111111,0000,10000011,0011110100001111,0,1,0,0,0,0,0,0,0,0,0
201,201,0,0,00,3d0f,3bcf,1,00b6,00,01000001,0000,01011011,0011111100101111,0,1,0,0,0,0,0,0,0,0,0
